<Qucs Dataset 0.0.19>
<indep time 50>
  +0.00000000000000000000e+000
  +2.04081632653061242899e-003
  +4.08163265306122485798e-003
  +6.12244897959183728697e-003
  +8.16326530612244971596e-003
  +1.02040816326530621450e-002
  +1.22448979591836745739e-002
  +1.42857142857142870029e-002
  +1.63265306122448994319e-002
  +1.83673469387755118609e-002
  +2.04081632653061242899e-002
  +2.24489795918367367189e-002
  +2.44897959183673491479e-002
  +2.65306122448979615769e-002
  +2.85714285714285740059e-002
  +3.06122448979591864349e-002
  +3.26530612244897988639e-002
  +3.46938775510204078234e-002
  +3.67346938775510237218e-002
  +3.87755102040816326814e-002
  +4.08163265306122485798e-002
  +4.28571428571428575394e-002
  +4.48979591836734734378e-002
  +4.69387755102040823973e-002
  +4.89795918367346982958e-002
  +5.10204081632653072553e-002
  +5.30612244897959231538e-002
  +5.51020408163265321133e-002
  +5.71428571428571480117e-002
  +5.91836734693877569713e-002
  +6.12244897959183728697e-002
  +6.32653061224489887682e-002
  +6.53061224489795977277e-002
  +6.73469387755102066873e-002
  +6.93877551020408156468e-002
  +7.14285714285714384841e-002
  +7.34693877551020474437e-002
  +7.55102040816326564032e-002
  +7.75510204081632653628e-002
  +7.95918367346938882001e-002
  +8.16326530612244971596e-002
  +8.36734693877551061192e-002
  +8.57142857142857150787e-002
  +8.77551020408163379161e-002
  +8.97959183673469468756e-002
  +9.18367346938775558352e-002
  +9.38775510204081647947e-002
  +9.59183673469387876320e-002
  +9.79591836734693965916e-002
  +1.00000000000000005551e-001
</indep>
<dep Pr1.Vt time>
  +0.00000000000000000000e+000
  +2.73805536269520333192e+000
  +4.24573326870200240535e+000
  +2.95902616038182975089e+000
  +2.14875461398837587814e-007
  -6.59096030087991487404e-009
  -9.19606910832280986581e-011
  +4.03438125766784833400e-009
  +1.40390577523017030709e-008
  +2.25521067364917460196e+000
  +4.18458613333978934890e+000
  +3.35524873475029528080e+000
  +2.74862635258469156785e-001
  -7.05191186500675210603e-009
  -1.40116496102954488755e-009
  +3.75036420159766291328e-009
  +1.09649296340632860190e-008
  +1.72517197061278526604e+000
  +4.04290692456533129473e+000
  +3.68496078006614480316e+000
  +8.64973117915317835092e-001
  -8.46188203240698297135e-009
  -2.42525705016895975551e-009
  +2.70038331583476970244e-009
  +9.19571335277308879376e-009
  +1.15821978457351226766e+000
  +3.82307612530771701032e+000
  +3.94255953015349724922e+000
  +1.44557406770330487689e+000
  -1.10118146137355409331e-008
  -2.11119861796549713345e-009
  +8.05010975950932410537e-010
  +8.84567432845186879724e-009
  +5.68552578992600254892e-001
  +3.52879752628345233489e+000
  +4.12369571691109726430e+000
  +1.99549554841499876545e+000
  -1.22631023086073733270e-008
  -3.83822106686137319840e-009
  +7.80096535212599062185e-010
  +6.29871602326535170882e-009
  +2.28066781424078254825e-002
  +3.16505349374407174423e+000
  +4.22532233309351923367e+000
  +2.50310393738649228368e+000
  -2.90903702680819142388e-008
  -1.85436343881118029956e-008
  +1.36976993628277620111e-008
  +1.90293161833001360516e-008
  +5.47445524138559414208e-009
</dep>
<dep Pr3.Vt time>
  +0.00000000000000000000e+000
  +3.47841275301743202419e+000
  +4.99743108100343924605e+000
  +3.70138998537657748500e+000
  +3.20351099903563918403e-001
  -3.24114197653894287043e+000
  -4.97689556474599115177e+000
  -3.90915741234014690875e+000
  -6.39385808422528789663e-001
  +2.99055265245608259406e+000
  +4.93590891707225054574e+000
  +4.10086127298477975955e+000
  +9.55793143506859510516e-001
  -2.72767450605274675013e+000
  -4.87463956090912020613e+000
  -4.27571381502673020236e+000
  -1.26827291954753418324e+000
  +2.45358776001968603708e+000
  +4.79333926518330510902e+000
  +4.43299653186500020041e+000
  +1.57554109011810017371e+000
  -2.16941869558778765992e+000
  -4.69234211024880210061e+000
  -4.57206311507906182356e+000
  -1.87633502439686683516e+000
  +1.87633502439687660512e+000
  +4.57206311507906626446e+000
  +4.69234211024880476515e+000
  +2.16941869558777833404e+000
  -1.57554109011810172802e+000
  -4.43299653186500020041e+000
  -4.79333926518329711541e+000
  -2.45358776001968470482e+000
  +1.26827291954754439729e+000
  +4.27571381502672664965e+000
  +4.87463956090911487706e+000
  +2.72767450605273076292e+000
  -9.55793143506861064829e-001
  -4.10086127298478064773e+000
  -4.93590891707224699303e+000
  -2.99055265245607415636e+000
  +6.39385808422539003715e-001
  +3.90915741234014513239e+000
  +4.97689556474598937541e+000
  +3.24114197653894331452e+000
  -3.20351099903583236284e-001
  -3.70138998537657970545e+000
  -4.99743108100343835787e+000
  -3.47841275301742625103e+000
  -7.34763812293426354927e-015
</dep>
<dep V1.It time>
  +0.00000000000000000000e+000
  -2.73805536269520338744e-003
  -4.24573326870200835892e-003
  -2.95902616038182979599e-003
  -2.14875461398837613456e-010
  +6.59096030087991518423e-012
  +9.19606910832281091595e-014
  -4.03438125766784829523e-012
  -1.40390577523017008091e-011
  -2.25521067364917561851e-003
  -4.18458613333979288773e-003
  -3.35524873475030087702e-003
  -2.74862635258469266940e-004
  +7.05191186500675292675e-012
  +1.40116496102954458866e-012
  -3.75036420159766319116e-012
  -1.09649296340632854890e-011
  -1.72517197061278215742e-003
  -4.04290692456532249621e-003
  -3.68496078006614203454e-003
  -8.64973117915316292055e-004
  +8.46188203240698298428e-012
  +2.42525705016895973935e-012
  -2.70038331583476949564e-012
  -9.19571335277308919442e-012
  -1.15821978457351210633e-003
  -3.82307612530772287021e-003
  -3.94255953015350008722e-003
  -1.44557406770330241705e-003
  +1.10118146137355424194e-011
  +2.11119861796549708175e-012
  -8.05010975950932342682e-013
  -8.84567432845186860337e-012
  -5.68552578992600555000e-004
  -3.52879752628345710191e-003
  -4.12369571691109486344e-003
  -1.99549554841499691624e-003
  +1.22631023086073755241e-011
  +3.83822106686137357967e-012
  -7.80096535212598924861e-013
  -6.29871602326535194147e-012
  -2.28066781424078237207e-005
  -3.16505349374407397509e-003
  -4.22532233309352248801e-003
  -2.50310393738649179102e-003
  +2.90903702680819148592e-011
  +1.85436343881118045982e-011
  -1.36976993628277619594e-011
  -1.90293161833001319674e-011
  -5.47445524138559384482e-012
</dep>
<dep Pr2.It time>
  +0.00000000000000000000e+000
  +2.73805536269520338744e-003
  +4.24573326870200315475e-003
  +2.95902616038182979599e-003
  +2.14875461398837587607e-010
  -6.59096030087991518423e-012
  -9.19606910832280965377e-014
  +4.03438125766784829523e-012
  +1.40390577523017024246e-011
  +2.25521067364917431747e-003
  +4.18458613333978855092e-003
  +3.35524873475029567285e-003
  +2.74862635258469158520e-004
  -7.05191186500675211895e-012
  -1.40116496102954479061e-012
  +3.75036420159766319116e-012
  +1.09649296340632854890e-011
  +1.72517197061278541002e-003
  +4.04290692456533116983e-003
  +3.68496078006614463662e-003
  +8.64973117915317809938e-004
  -8.46188203240698298428e-012
  -2.42525705016895973935e-012
  +2.70038331583476989954e-012
  +9.19571335277308919442e-012
  +1.15821978457351232317e-003
  +3.82307612530771723236e-003
  +3.94255953015349748514e-003
  +1.44557406770330480229e-003
  -1.10118146137355408038e-011
  -2.11119861796549708175e-012
  +8.05010975950932443656e-013
  +8.84567432845186860337e-012
  +5.68552578992600229739e-004
  +3.52879752628345276511e-003
  +4.12369571691109746553e-003
  +1.99549554841499865096e-003
  -1.22631023086073739086e-011
  -3.83822106686137357967e-012
  +7.80096535212599025835e-013
  +6.29871602326535194147e-012
  +2.28066781424078271088e-005
  +3.16505349374407180668e-003
  +4.22532233309351901857e-003
  +2.50310393738649222470e-003
  -2.90903702680819148592e-011
  -1.85436343881118013671e-011
  +1.36976993628277619594e-011
  +1.90293161833001351986e-011
  +5.47445524138559384482e-012
</dep>
<dep _net1.Vt time>
  +0.00000000000000000000e+000
  +3.47841275301743202419e+000
  +4.99743108100343924605e+000
  +3.70138998537657748500e+000
  +3.20351099903563918403e-001
  -3.24114197653894287043e+000
  -4.97689556474599115177e+000
  -3.90915741234014690875e+000
  -6.39385808422528789663e-001
  +2.99055265245608259406e+000
  +4.93590891707225054574e+000
  +4.10086127298477975955e+000
  +9.55793143506859510516e-001
  -2.72767450605274675013e+000
  -4.87463956090912020613e+000
  -4.27571381502673020236e+000
  -1.26827291954753418324e+000
  +2.45358776001968603708e+000
  +4.79333926518330510902e+000
  +4.43299653186500020041e+000
  +1.57554109011810017371e+000
  -2.16941869558778765992e+000
  -4.69234211024880210061e+000
  -4.57206311507906182356e+000
  -1.87633502439686683516e+000
  +1.87633502439687660512e+000
  +4.57206311507906626446e+000
  +4.69234211024880476515e+000
  +2.16941869558777833404e+000
  -1.57554109011810172802e+000
  -4.43299653186500020041e+000
  -4.79333926518329711541e+000
  -2.45358776001968470482e+000
  +1.26827291954754439729e+000
  +4.27571381502672664965e+000
  +4.87463956090911487706e+000
  +2.72767450605273076292e+000
  -9.55793143506861064829e-001
  -4.10086127298478064773e+000
  -4.93590891707224699303e+000
  -2.99055265245607415636e+000
  +6.39385808422539003715e-001
  +3.90915741234014513239e+000
  +4.97689556474598937541e+000
  +3.24114197653894331452e+000
  -3.20351099903583236284e-001
  -3.70138998537657970545e+000
  -4.99743108100343835787e+000
  -3.47841275301742625103e+000
  -7.34763812293426354927e-015
</dep>
<dep _net2.Vt time>
  +0.00000000000000000000e+000
  +2.73805536269520333192e+000
  +4.24573326870200240535e+000
  +2.95902616038182975089e+000
  +2.14875461398837587814e-007
  -6.59096030087991487404e-009
  -9.19606910832280986581e-011
  +4.03438125766784833400e-009
  +1.40390577523017030709e-008
  +2.25521067364917460196e+000
  +4.18458613333978934890e+000
  +3.35524873475029528080e+000
  +2.74862635258469156785e-001
  -7.05191186500675210603e-009
  -1.40116496102954488755e-009
  +3.75036420159766291328e-009
  +1.09649296340632860190e-008
  +1.72517197061278526604e+000
  +4.04290692456533129473e+000
  +3.68496078006614480316e+000
  +8.64973117915317835092e-001
  -8.46188203240698297135e-009
  -2.42525705016895975551e-009
  +2.70038331583476970244e-009
  +9.19571335277308879376e-009
  +1.15821978457351226766e+000
  +3.82307612530771701032e+000
  +3.94255953015349724922e+000
  +1.44557406770330487689e+000
  -1.10118146137355409331e-008
  -2.11119861796549713345e-009
  +8.05010975950932410537e-010
  +8.84567432845186879724e-009
  +5.68552578992600254892e-001
  +3.52879752628345233489e+000
  +4.12369571691109726430e+000
  +1.99549554841499876545e+000
  -1.22631023086073733270e-008
  -3.83822106686137319840e-009
  +7.80096535212599062185e-010
  +6.29871602326535170882e-009
  +2.28066781424078254825e-002
  +3.16505349374407174423e+000
  +4.22532233309351923367e+000
  +2.50310393738649228368e+000
  -2.90903702680819142388e-008
  -1.85436343881118029956e-008
  +1.36976993628277620111e-008
  +1.90293161833001360516e-008
  +5.47445524138559414208e-009
</dep>
<dep _net0.Vt time>
  +0.00000000000000000000e+000
  +2.73805536269520333192e+000
  +4.24573326870200240535e+000
  +2.95902616038182975089e+000
  +2.14875461398837587814e-007
  -6.59096030087991487404e-009
  -9.19606910832280986581e-011
  +4.03438125766784833400e-009
  +1.40390577523017030709e-008
  +2.25521067364917460196e+000
  +4.18458613333978934890e+000
  +3.35524873475029528080e+000
  +2.74862635258469156785e-001
  -7.05191186500675210603e-009
  -1.40116496102954488755e-009
  +3.75036420159766291328e-009
  +1.09649296340632860190e-008
  +1.72517197061278526604e+000
  +4.04290692456533129473e+000
  +3.68496078006614480316e+000
  +8.64973117915317835092e-001
  -8.46188203240698297135e-009
  -2.42525705016895975551e-009
  +2.70038331583476970244e-009
  +9.19571335277308879376e-009
  +1.15821978457351226766e+000
  +3.82307612530771701032e+000
  +3.94255953015349724922e+000
  +1.44557406770330487689e+000
  -1.10118146137355409331e-008
  -2.11119861796549713345e-009
  +8.05010975950932410537e-010
  +8.84567432845186879724e-009
  +5.68552578992600254892e-001
  +3.52879752628345233489e+000
  +4.12369571691109726430e+000
  +1.99549554841499876545e+000
  -1.22631023086073733270e-008
  -3.83822106686137319840e-009
  +7.80096535212599062185e-010
  +6.29871602326535170882e-009
  +2.28066781424078254825e-002
  +3.16505349374407174423e+000
  +4.22532233309351923367e+000
  +2.50310393738649228368e+000
  -2.90903702680819142388e-008
  -1.85436343881118029956e-008
  +1.36976993628277620111e-008
  +1.90293161833001360516e-008
  +5.47445524138559414208e-009
</dep>
