<Qucs Dataset 0.0.19>
<indep time 50>
  +0.00000000000000000000e+000
  +2.04081632653061242899e-003
  +4.08163265306122485798e-003
  +6.12244897959183728697e-003
  +8.16326530612244971596e-003
  +1.02040816326530621450e-002
  +1.22448979591836745739e-002
  +1.42857142857142870029e-002
  +1.63265306122448994319e-002
  +1.83673469387755118609e-002
  +2.04081632653061242899e-002
  +2.24489795918367367189e-002
  +2.44897959183673491479e-002
  +2.65306122448979615769e-002
  +2.85714285714285740059e-002
  +3.06122448979591864349e-002
  +3.26530612244897988639e-002
  +3.46938775510204078234e-002
  +3.67346938775510237218e-002
  +3.87755102040816326814e-002
  +4.08163265306122485798e-002
  +4.28571428571428575394e-002
  +4.48979591836734734378e-002
  +4.69387755102040823973e-002
  +4.89795918367346982958e-002
  +5.10204081632653072553e-002
  +5.30612244897959231538e-002
  +5.51020408163265321133e-002
  +5.71428571428571480117e-002
  +5.91836734693877569713e-002
  +6.12244897959183728697e-002
  +6.32653061224489887682e-002
  +6.53061224489795977277e-002
  +6.73469387755102066873e-002
  +6.93877551020408156468e-002
  +7.14285714285714384841e-002
  +7.34693877551020474437e-002
  +7.55102040816326564032e-002
  +7.75510204081632653628e-002
  +7.95918367346938882001e-002
  +8.16326530612244971596e-002
  +8.36734693877551061192e-002
  +8.57142857142857150787e-002
  +8.77551020408163379161e-002
  +8.97959183673469468756e-002
  +9.18367346938775558352e-002
  +9.38775510204081647947e-002
  +9.59183673469387876320e-002
  +9.79591836734693965916e-002
  +1.00000000000000005551e-001
</indep>
<dep Pr1.Vt time>
  +0.00000000000000000000e+000
  +3.47841275301743202419e+000
  +4.99743108100343924605e+000
  +3.70138998537657748500e+000
  +3.20351099903563918403e-001
  -3.24114197653894287043e+000
  -4.97689556474599115177e+000
  -3.90915741234014690875e+000
  -6.39385808422528789663e-001
  +2.99055265245608259406e+000
  +4.93590891707225143392e+000
  +4.10086127298477975955e+000
  +9.55793143506859510516e-001
  -2.72767450605274675013e+000
  -4.87463956090912020613e+000
  -4.27571381502673020236e+000
  -1.26827291954753418324e+000
  +2.45358776001968603708e+000
  +4.79333926518330510902e+000
  +4.43299653186500020041e+000
  +1.57554109011810017371e+000
  -2.16941869558778765992e+000
  -4.69234211024880210061e+000
  -4.57206311507906182356e+000
  -1.87633502439686683516e+000
  +1.87633502439687660512e+000
  +4.57206311507906626446e+000
  +4.69234211024880476515e+000
  +2.16941869558777833404e+000
  -1.57554109011810172802e+000
  -4.43299653186500020041e+000
  -4.79333926518329711541e+000
  -2.45358776001968470482e+000
  +1.26827291954754439729e+000
  +4.27571381502672664965e+000
  +4.87463956090911487706e+000
  +2.72767450605273076292e+000
  -9.55793143506861064829e-001
  -4.10086127298478064773e+000
  -4.93590891707224699303e+000
  -2.99055265245607415636e+000
  +6.39385808422539003715e-001
  +3.90915741234014513239e+000
  +4.97689556474598937541e+000
  +3.24114197653894331452e+000
  -3.20351099903583236284e-001
  -3.70138998537657970545e+000
  -4.99743108100343835787e+000
  -3.47841275301742625103e+000
  -7.34763812293426354927e-015
</dep>
<dep Pr2.Vt time>
  +0.00000000000000000000e+000
  +2.63653988367562952533e+000
  +4.20836600789718584537e+000
  +4.16450958803559156962e+000
  +4.08038092627609128016e+000
  +3.99795177601767770525e+000
  +3.91718780487205409102e+000
  +3.83805537400223206745e+000
  +3.76052152411099394058e+000
  +3.68455396172073035288e+000
  +4.12723853269273011080e+000
  +4.17616311649177873733e+000
  +4.09179903950881307395e+000
  +4.00913924873576377195e+000
  +3.92814929591381689633e+000
  +3.84879544809022045015e+000
  +3.77104465376400010967e+000
  +3.69486452911347162953e+000
  +3.97301575761801650799e+000
  +4.19067449013359993870e+000
  +4.10601729288985595190e+000
  +4.02307028368044150568e+000
  +3.94179891441736218738e+000
  +3.86216933495629266559e+000
  +3.78414837896090627822e+000
  +3.70770355009212471131e+000
  +3.74032543849853427176e+000
  +4.20439522362354356488e+000
  +4.11946093311346928090e+000
  +4.03624231916178821677e+000
  +3.95470483244233017572e+000
  +3.87481451195151205269e+000
  +3.79653808273354442804e+000
  +3.71984294427880080036e+000
  +3.64472627232369505990e+000
  +4.21886741509934903860e+000
  +4.13373049018598237581e+000
  +4.05022361257761520648e+000
  +3.96840368822389732983e+000
  +3.88823663565067301207e+000
  +3.80968906464534828871e+000
  +3.73272825951337861028e+000
  +3.65732216548562893976e+000
  +4.22884207046583071588e+000
  +4.14788899958449963634e+000
  +4.06409609132261540054e+000
  +3.98199591511782724496e+000
  +3.90155427234025431460e+000
  +3.82273765840238288760e+000
  +3.74551324575062860589e+000
</dep>
<dep V1.It time>
  +0.00000000000000000000e+000
  -1.38939337010988206433e-001
  -1.80174915308107530532e-002
  +8.84661688648833503075e-012
  +6.63074300725530514795e-012
  +3.48279570282023918358e-012
  -2.77972664097875702690e-013
  -4.15529462936144993399e-012
  -7.72691425024657521974e-012
  -1.16090114612825582240e-011
  -3.84634889331357185394e-002
  +1.10417328538866471244e-011
  +6.53866144873174103571e-012
  +5.91673068598596217658e-012
  -1.58713068302827283331e-013
  -1.66791231575766568676e-012
  -7.69018669468154459381e-012
  -8.89002896617328740409e-012
  -6.03687662504207855907e-002
  -3.02753401058237483164e-012
  +6.62108049000750692226e-012
  +3.76854298727118573012e-012
  +1.59116624830469427417e-013
  -3.73499383116118876394e-012
  -7.43765097824982872149e-012
  -1.08977187345864156444e-011
  -9.38775347553753858332e-002
  -1.57436709505422401081e-007
  +7.47564860766957012955e-012
  +6.86645240437471133871e-012
  +1.26928456393738971894e-012
  -5.28694867796705267799e-013
  -6.37380953320051835181e-012
  -7.72610964358034202496e-012
  -3.98209877954913124337e-005
  -1.03866210989196611604e-004
  +8.01314011674357829756e-012
  +7.19531727470225670450e-012
  +2.08082084191713285082e-012
  -6.45732549515601133859e-014
  -5.58575342255263556651e-012
  -7.33518251896583465809e-012
  -3.29731320735630673826e-011
  -3.68749066738813724084e-003
  +8.19728149200510797469e-012
  +5.82558924202773341323e-012
  +2.54210487222951103914e-012
  -1.27401863789053171653e-012
  -5.12367277708426543136e-012
  -8.63328850651680533675e-012
</dep>
<dep _net0.Vt time>
  +0.00000000000000000000e+000
  +2.63653988367562952533e+000
  +4.20836600789718584537e+000
  +4.16450958803559156962e+000
  +4.08038092627609128016e+000
  +3.99795177601767770525e+000
  +3.91718780487205409102e+000
  +3.83805537400223206745e+000
  +3.76052152411099394058e+000
  +3.68455396172073035288e+000
  +4.12723853269273011080e+000
  +4.17616311649177873733e+000
  +4.09179903950881307395e+000
  +4.00913924873576377195e+000
  +3.92814929591381689633e+000
  +3.84879544809022045015e+000
  +3.77104465376400010967e+000
  +3.69486452911347162953e+000
  +3.97301575761801650799e+000
  +4.19067449013359993870e+000
  +4.10601729288985595190e+000
  +4.02307028368044150568e+000
  +3.94179891441736218738e+000
  +3.86216933495629266559e+000
  +3.78414837896090627822e+000
  +3.70770355009212471131e+000
  +3.74032543849853427176e+000
  +4.20439522362354356488e+000
  +4.11946093311346928090e+000
  +4.03624231916178821677e+000
  +3.95470483244233017572e+000
  +3.87481451195151205269e+000
  +3.79653808273354442804e+000
  +3.71984294427880080036e+000
  +3.64472627232369505990e+000
  +4.21886741509934903860e+000
  +4.13373049018598237581e+000
  +4.05022361257761520648e+000
  +3.96840368822389732983e+000
  +3.88823663565067301207e+000
  +3.80968906464534828871e+000
  +3.73272825951337861028e+000
  +3.65732216548562893976e+000
  +4.22884207046583071588e+000
  +4.14788899958449963634e+000
  +4.06409609132261540054e+000
  +3.98199591511782724496e+000
  +3.90155427234025431460e+000
  +3.82273765840238288760e+000
  +3.74551324575062860589e+000
</dep>
<dep _net1.Vt time>
  +0.00000000000000000000e+000
  +3.47841275301743202419e+000
  +4.99743108100343924605e+000
  +3.70138998537657748500e+000
  +3.20351099903563918403e-001
  -3.24114197653894287043e+000
  -4.97689556474599115177e+000
  -3.90915741234014690875e+000
  -6.39385808422528789663e-001
  +2.99055265245608259406e+000
  +4.93590891707225143392e+000
  +4.10086127298477975955e+000
  +9.55793143506859510516e-001
  -2.72767450605274675013e+000
  -4.87463956090912020613e+000
  -4.27571381502673020236e+000
  -1.26827291954753418324e+000
  +2.45358776001968603708e+000
  +4.79333926518330510902e+000
  +4.43299653186500020041e+000
  +1.57554109011810017371e+000
  -2.16941869558778765992e+000
  -4.69234211024880210061e+000
  -4.57206311507906182356e+000
  -1.87633502439686683516e+000
  +1.87633502439687660512e+000
  +4.57206311507906626446e+000
  +4.69234211024880476515e+000
  +2.16941869558777833404e+000
  -1.57554109011810172802e+000
  -4.43299653186500020041e+000
  -4.79333926518329711541e+000
  -2.45358776001968470482e+000
  +1.26827291954754439729e+000
  +4.27571381502672664965e+000
  +4.87463956090911487706e+000
  +2.72767450605273076292e+000
  -9.55793143506861064829e-001
  -4.10086127298478064773e+000
  -4.93590891707224699303e+000
  -2.99055265245607415636e+000
  +6.39385808422539003715e-001
  +3.90915741234014513239e+000
  +4.97689556474598937541e+000
  +3.24114197653894331452e+000
  -3.20351099903583236284e-001
  -3.70138998537657970545e+000
  -4.99743108100343835787e+000
  -3.47841275301742625103e+000
  -7.34763812293426354927e-015
</dep>
